! Touchstone file exported from HFSS 2022.2.0
!        File:           /home/fengz3/Antenna/yi_ant1.aedt
!        Generated:      5:05:41 PM  Dec 19, 2022
!        Design:         ant
!        Project:        yi_ant1
!        Setup:          Setup1
!        Solution:       Sweep
!
! Variables:
!        boxx = 80mm
!        boxy = 80mm
!        boxz = 60mm
!        gndslot_x = 8mm
!        gndslot_y = 16mm
!        gndx = 50mm
!        linew = 1mm
!        linex = 25mm
!        patchx = 30.63mm
!        patchy = 32.45mm
!        porth = 6mm
!        portw = 12mm
!        slot1_x = 0.01mm
!        slot1_y = 0.01mm
!        slot2_x = 0.01mm
!        slot2_y = 0.01mm
!        sub1_x = 8mm
!        sub1_y = 18mm
!        subx = 50mm
!        suby = 52mm
!        subz = 1.6mm
!
# GHz S MA R 50.000000
! Terminal data exported
! Port[1] = 1
2.3                            0.515752708022438 112.238284302303 
! Gamma         0.726647195826984 83.5312173196599 
! Port Impedance         50               0                
2.302                          0.529560961257689 110.811567953904 
! Gamma         0.727304440860586 83.6044984761523 
! Port Impedance         50               0                
2.304                          0.542975301942881 109.42992850911  
! Gamma         0.727961745981833 83.6777812239903 
! Port Impedance         50               0                
2.306                          0.555998490022327 108.090748420643 
! Gamma         0.728619111218073 83.7510655641752 
! Port Impedance         50               0                
2.308                          0.568634432151658 106.7916973326   
! Gamma         0.729276536596595 83.8243514977077 
! Port Impedance         50               0                
2.31                           0.580888028742775 105.530686077708 
! Gamma         0.729934022144631 83.8976390255873 
! Port Impedance         50               0                
2.312                          0.592765034807012 104.305829208312 
! Gamma         0.730591567889356 83.9709281488127 
! Port Impedance         50               0                
2.314                          0.604271933367114 103.115414348188 
! Gamma         0.731249173857888 84.0442188683818 
! Port Impedance         50               0                
2.316                          0.615415820435253 101.957877021905 
! Gamma         0.731906840077287 84.1175111852916 
! Port Impedance         50               0                
2.318                          0.62620430070597 100.831779902147 
! Gamma         0.732564566574557 84.190805100538  
! Port Impedance         50               0                
2.32                           0.636645393214194 99.7357956345889 
! Gamma         0.733222353376645 84.2641006151162 
! Port Impedance         50               0                
2.322                          0.646747446276406 98.6686925703922 
! Gamma         0.733880200510441 84.3373977300204 
! Port Impedance         50               0                
2.324                          0.6565190610798  97.6293228698066 
! Gamma         0.734538108002777 84.410696446244  
! Port Impedance         50               0                
2.326                          0.665969023317877 96.6166125453731 
! Gamma         0.73519607588043 84.4839967647793 
! Port Impedance         50               0                
2.328                          0.67510624229717 95.6295530963262 
! Gamma         0.735854104170121 84.557298686618  
! Port Impedance         50               0                
2.33                           0.683939696962156 94.6671944519039 
! Gamma         0.736512192898512 84.6306022127506 
! Port Impedance         50               0                
2.332                          0.692478388306462 93.7286389940937 
! Gamma         0.73717034209221 84.703907344167  
! Port Impedance         50               0                
2.334                          0.700731297659287 92.8130364727465 
! Gamma         0.737828551777765 84.7772140818558 
! Port Impedance         50               0                
2.336                          0.708707350357588 91.9195796601488 
! Gamma         0.738486821981671 84.8505224268051 
! Port Impedance         50               0                
2.338                          0.716415384337121 91.0475006197701 
! Gamma         0.739145152730365 84.9238323800019 
! Port Impedance         50               0                
2.34                           0.723864123198949 90.1960674863156 
! Gamma         0.73980354405023 84.9971439424323 
! Port Impedance         50               0                
2.342                          0.731062153332454 89.3645816724508 
! Gamma         0.740461995967589 85.0704571150814 
! Port Impedance         50               0                
2.344                          0.738017904700811 88.5523754324479 
! Gamma         0.741120508508712 85.1437718989337 
! Port Impedance         50               0                
2.346                          0.744739634920228 87.758809725166  
! Gamma         0.741779081699811 85.2170882949725 
! Port Impedance         50               0                
2.348                          0.751235416289469 86.9832723287613 
! Gamma         0.742437715567043 85.2904063041804 
! Port Impedance         50               0                
2.35                           0.757513125451256 86.2251761677019 
! Gamma         0.743096410136507 85.3637259275389 
! Port Impedance         50               0                
2.352                          0.763580435391562 85.4839578194088 
! Gamma         0.743755165434249 85.4370471660287 
! Port Impedance         50               0                
2.354                          0.769444809506583 84.7590761733862 
! Gamma         0.744413981486257 85.5103700206296 
! Port Impedance         50               0                
2.356                          0.775113497490011 84.0500112202867 
! Gamma         0.745072858318463 85.5836944923205 
! Port Impedance         50               0                
2.358                          0.780593532814964 83.356262952135  
! Gamma         0.745731795956743 85.6570205820793 
! Port Impedance         50               0                
2.36                           0.7858917316056  82.6773503580589 
! Gamma         0.746390794426918 85.7303482908832 
! Port Impedance         50               0                
2.362                          0.791014692712844 82.0128105024637 
! Gamma         0.747049853754752 85.8036776197082 
! Port Impedance         50               0                
2.364                          0.795968798826821 81.3621976747245 
! Gamma         0.747708973965954 85.8770085695297 
! Port Impedance         50               0                
2.366                          0.800760218475504 80.7250826012496 
! Gamma         0.748368155086177 85.9503411413219 
! Port Impedance         50               0                
2.368                          0.805394908774763 80.1010517122351 
! Gamma         0.749027397141017 86.0236753360584 
! Port Impedance         50               0                
2.37                           0.809878618809416 79.4897064566555 
! Gamma         0.749686700156016 86.0970111547115 
! Port Impedance         50               0                
2.372                          0.814216893538164 78.8906626600481 
! Gamma         0.750346064156659 86.170348598253  
! Port Impedance         50               0                
2.374                          0.818415078127413 78.3035499204879 
! Gamma         0.751005489168376 86.2436876676535 
! Port Impedance         50               0                
2.376                          0.822478322630013 77.7280110388568 
! Gamma         0.75166497521654 86.3170283638828 
! Port Impedance         50               0                
2.378                          0.826411586935015 77.1637014800846 
! Gamma         0.752324522326469 86.3903706879099 
! Port Impedance         50               0                
2.38                           0.830219645923594 76.6102888625305 
! Gamma         0.752984130523426 86.4637146407026 
! Port Impedance         50               0                
2.382                          0.833907094774479 76.0674524730743 
! Gamma         0.753643799832616 86.537060223228  
! Port Impedance         50               0                
2.384                          0.837478354369621 75.534882805824  
! Gamma         0.754303530279191 86.6104074364523 
! Port Impedance         50               0                
2.386                          0.840937676757438 75.0122811226263 
! Gamma         0.754963321888246 86.6837562813408 
! Port Impedance         50               0                
2.388                          0.844289150636843 74.4993590338032 
! Gamma         0.755623174684819 86.7571067588576 
! Port Impedance         50               0                
2.39                           0.847536706830622 73.9958380977308 
! Gamma         0.756283088693894 86.8304588699663 
! Port Impedance         50               0                
2.392                          0.850684123721321 73.5014494380454 
! Gamma         0.756943063940399 86.9038126156293 
! Port Impedance         50               0                
2.394                          0.853735032627052 73.0159333773958 
! Gamma         0.757603100449205 86.9771679968083 
! Port Impedance         50               0                
2.396                          0.856692923098251 72.5390390867799 
! Gamma         0.75826319824513 87.0505250144638 
! Port Impedance         50               0                
2.398                          0.859561148119701 72.0705242496017 
! Gamma         0.758923357352934 87.1238836695557 
! Port Impedance         50               0                
2.4                            0.862342929204978 71.6101547396663 
! Gamma         0.759583577797322 87.1972439630427 
! Port Impedance         50               0                
2.402                          0.86504136137301 71.1577043124023 
! Gamma         0.760243859602942 87.2706058958828 
! Port Impedance         50               0                
2.404                          0.867659417998576 70.7129543086628 
! Gamma         0.760904202794389 87.3439694690331 
! Port Impedance         50               0                
2.406                          0.87019995553058 70.2756933705052 
! Gamma         0.761564607396199 87.4173346834495 
! Port Impedance         50               0                
2.408                          0.872665718073466 69.8457171683968 
! Gamma         0.762225073432855 87.4907015400873 
! Port Impedance         50               0                
2.41                           0.875059341828716 69.422828139331  
! Gamma         0.762885600928782 87.5640700399008 
! Port Impedance         50               0                
2.412                          0.877383359394489 69.0068352353737 
! Gamma         0.763546189908353 87.6374401838432 
! Port Impedance         50               0                
2.414                          0.879640203922589 68.5975536821873 
! Gamma         0.76420684039588 87.7108119728671 
! Port Impedance         50               0                
2.416                          0.881832213132846 68.1948047471094 
! Gamma         0.764867552415623 87.7841854079239 
! Port Impedance         50               0                
2.418                          0.883961633185723 67.798415516382  
! Gamma         0.765528325991785 87.8575604899641 
! Port Impedance         50               0                
2.42                           0.886030622414657 67.4082186811541 
! Gamma         0.766189161148513 87.9309372199376 
! Port Impedance         50               0                
2.422                          0.888041254920136 67.0240523318938 
! Gamma         0.766850057909899 88.004315598793  
! Port Impedance         50               0                
2.424                          0.889995524027981 66.6457597608665 
! Gamma         0.767511016299979 88.0776956274782 
! Port Impedance         50               0                
2.426                          0.891895345614665 66.2731892723535 
! Gamma         0.768172036342732 88.1510773069401 
! Port Impedance         50               0                
2.428                          0.89374256130277 65.9061940002949 
! Gamma         0.768833118062083 88.2244606381246 
! Port Impedance         50               0                
2.43                           0.895538941529932 65.544631733059  
! Gamma         0.769494261481899 88.297845621977  
! Port Impedance         50               0                
2.432                          0.897286188494788 65.1883647450518 
! Gamma         0.770155466625994 88.3712322594413 
! Port Impedance         50               0                
2.434                          0.89898593898357 64.8372596348911 
! Gamma         0.770816733518124 88.4446205514607 
! Port Impedance         50               0                
2.436                          0.900639767081063 64.491187169883  
! Gamma         0.771478062181989 88.5180104989777 
! Port Impedance         50               0                
2.438                          0.902249186769723 64.1500221365472 
! Gamma         0.772139452641235 88.5914021029335 
! Port Impedance         50               0                
2.44                           0.903815654420749 63.8136431969495 
! Gamma         0.77280090491945 88.6647953642688 
! Port Impedance         50               0                
2.442                          0.905340571180913 63.4819327506095 
! Gamma         0.773462419040168 88.7381902839229 
! Port Impedance         50               0                
2.444                          0.906825285258924 63.1547768017584 
! Gamma         0.774123995026866 88.8115868628346 
! Port Impedance         50               0                
2.446                          0.908271094115061 62.8320648317346 
! Gamma         0.774785632902964 88.8849851019416 
! Port Impedance         50               0                
2.448                          0.90967924655776 62.5136896763097 
! Gamma         0.775447332691828 88.9583850021807 
! Port Impedance         50               0                
2.45                           0.911050944750768 62.1995474077477 
! Gamma         0.776109094416768 89.0317865644877 
! Port Impedance         50               0                
2.452                          0.912387346134389 61.8895372214071 
! Gamma         0.776770918101036 89.1051897897976 
! Port Impedance         50               0                
2.454                          0.913689565264285 61.5835613267046 
! Gamma         0.777432803767831 89.1785946790444 
! Port Impedance         50               0                
2.456                          0.914958675571187 61.2815248422637 
! Gamma         0.778094751440293 89.2520012331612 
! Port Impedance         50               0                
2.458                          0.916195711044765 60.9833356950806 
! Gamma         0.778756761141509 89.3254094530802 
! Port Impedance         50               0                
2.46                           0.917401667844841 60.6889045235471 
! Gamma         0.779418832894508 89.3988193397327 
! Port Impedance         50               0                
2.462                          0.918577505842989 60.3981445841734 
! Gamma         0.780080966722262 89.4722308940488 
! Port Impedance         50               0                
2.464                          0.91972415009749 60.1109716618633 
! Gamma         0.78074316264769 89.5456441169582 
! Port Impedance         50               0                
2.466                          0.920842492264492 59.8273039835989 
! Gamma         0.781405420693653 89.6190590093892 
! Port Impedance         50               0                
2.468                          0.921933391948128 59.5470621353975 
! Gamma         0.782067740882957 89.6924755722694 
! Port Impedance         50               0                
2.47                           0.922997677992242 59.2701689824085 
! Gamma         0.78273012323835 89.7658938065254 
! Port Impedance         50               0                
2.472                          0.924036149716275 58.9965495920258 
! Gamma         0.783392567782526 89.8393137130829 
! Port Impedance         50               0                
2.474                          0.925049578097747 58.7261311598925 
! Gamma         0.784055074538122 89.9127352928667 
! Port Impedance         50               0                
2.476                          0.926038706903704 58.4588429386828 
! Gamma         0.784717643527719 89.9861585468007 
! Port Impedance         50               0                
2.478                          0.927004253773373 58.1946161695508 
! Gamma         0.785380274773842 90.0595834758078 
! Port Impedance         50               0                
2.48                           0.927946911254187 57.9333840161369 
! Gamma         0.786042968298961 90.1330100808099 
! Port Impedance         50               0                
2.482                          0.928867347793269 57.6750815010307 
! Gamma         0.786705724125488 90.2064383627281 
! Port Impedance         50               0                
2.484                          0.929766208686332 57.4196454445926 
! Gamma         0.78736854227578 90.2798683224827 
! Port Impedance         50               0                
2.486                          0.930644116985925 57.1670144060386 
! Gamma         0.788031422772138 90.3532999609927 
! Port Impedance         50               0                
2.488                          0.931501674370819 56.9171286266989 
! Gamma         0.788694365636805 90.4267332791765 
! Port Impedance         50               0                
2.49                           0.932339461978283 56.6699299753632 
! Gamma         0.789357370891971 90.5001682779514 
! Port Impedance         50               0                
2.492                          0.933158041200913 56.4253618956296 
! Gamma         0.790020438559769 90.5736049582339 
! Port Impedance         50               0                
2.494                          0.93395795444959 56.1833693551776 
! Gamma         0.790683568662273 90.6470433209394 
! Port Impedance         50               0                
2.496                          0.934739725884103 55.9438987968894 
! Gamma         0.791346761221505 90.7204833669826 
! Port Impedance         50               0                
2.498                          0.935503862112873 55.7068980917451 
! Gamma         0.792010016259428 90.793925097277  
! Port Impedance         50               0                
2.5                            0.936250852863161 55.4723164934227 
! Gamma         0.79267333379795 90.8673685127355 
! Port Impedance         50               0                
2.502                          0.936981171623096 55.2401045945349 
! Gamma         0.793336713858924 90.9408136142697 
! Port Impedance         50               0                
2.504                          0.937695276256767 55.0102142844395 
! Gamma         0.794000156464144 91.0142604027905 
! Port Impedance         50               0                
2.506                          0.938393609593595 54.7825987085593 
! Gamma         0.794663661635351 91.0877088792078 
! Port Impedance         50               0                
2.508                          0.939076599993128 54.5572122291554 
! Gamma         0.795327229394226 91.1611590444307 
! Port Impedance         50               0                
2.51                           0.939744661886364 54.3340103874937 
! Gamma         0.795990859762399 91.2346108993672 
! Port Impedance         50               0                
2.512                          0.940398196294629 54.1129498673533 
! Gamma         0.796654552761441 91.3080644449243 
! Port Impedance         50               0                
